
**** 10/02/18 17:36:02 ********* PSpice 9.2 (Mar 2000) ******** ID# 0 ********

 ** Profile: "SCHEMATIC1-seal"  [ d:\facu\[8610] diseo de circuitos electrnicos\yamaha\yamaha-schematic1-seal.sim ] 


 ****     CIRCUIT DESCRIPTION


******************************************************************************




** Creating circuit file "yamaha-schematic1-seal.sim.cir" 
** WARNING: THIS AUTOMATICALLY GENERATED FILE MAY BE OVERWRITTEN BY SUBSEQUENT SIMULATIONS

*Libraries: 
* Local Libraries :
* From [PSPICE NETLIST] section of C:\Program Files\Orcad_v2\PSpice\PSpice.ini file:
.lib "nom.lib" 

*Analysis directives: 
.TRAN  0 3m 0 10000 
.PROBE V(*) I(*) W(*) D(*) NOISE(*) 
.INC ".\yamaha-SCHEMATIC1.net" 



**** INCLUDING yamaha-SCHEMATIC1.net ****
* source YAMAHA
C_C7         N02915 N03011  1n  
C_C13         N03702 N06531  100p  
C_C9         N00733 0  680u  
C_C14         N02353 N02382  10u  
R_R6         N01558 N01501  220  
R_R16         N01558 N04763  100  
R_R24         N03011 N07737  0.22  
Q_Q125         N01287 N00893 N00839 Q2SA893
R_R3         N00839 N00733  560  
V_V1         N06531 0 52Vdc
R_R13         N01558 N00272  10k  
Q_Q117         N03702 N05126 N04697 Q2SD1915
Q_Q14         N05802 N06963 N08456 Q2SA1302 
C_C1         N02382 N02353  220p  
V_V2         0 N05802 52Vdc
R_R12         N04080 N00893  100k  
R_R187         N06437 N17268  4.7  
Q_Q11         N05802 N04697 N07086 Q2SA1368
R_R26         N07200 N07086  4.7  
Q_Q1         N00272 N02353 N01287 Q2SA970
C_C115         N03702 N04697  47u  
R_R111C         N03011 N074272  0.22  
C_C2         N02353 N02915  100p  
R_R15         N01558 N04231  470  
Q_Q6         N01118 N00893 N03702 Q2SA1145
C_C8         N04231 N00272  1n  
C_C3         0 N02353  47p  
Q_Q10         N04697 N04080 N04763 Q2SC2705
Q_Q2         N00241 N02915 N01287 Q2SA970
Q_Q119C         N06531 N03702 N06437 Q2SC3438
V_V4         N02413 0  
+SIN 0 1 1k 0 0 0
C_C10         0 N01558  680u  
R_R34         0 N03011  8  
R_R4         N01118 N00733  100  
D_D1         N00733 N005931 D1SS104 
R_R31         N06437 N08166  4.7  
Q_Q3         N00272 N00241 N01472 Q2SC1815
R_R28         N07086 N06963  4.7  
R_R17         N05126 N03702  2.7k  
R_R7         N02413 N02382  100  
D_D2         N005931 N00893 D1SS104 
Q_Q4         N00241 N00241 N01501 Q2SC1815
R_R188         N00733 N06531  47  
Q_Q15         N05802 N07200 N08485 Q2SA1302 
R_R18         N04697 N05126  820  
R_R8         0 N02413  150k  
R_R32         N08456 N03011  0.22  
Q_Q16         N06531 N08166 N07737 Q2SC3281 
R_R111A         N08485 N03011  0.22  
Q_Q8         N04763 N00272 N04080 Q2SA1015
R_R9         N02915 N03011  1k  
R_R22         N01558 N05802  47  
R_R11         0 N03243  1k  
Q_Q17         N06531 N17268 N074272 Q2SC3281 
C_C113         N05802 N04697  100p  
R_R21         0 N04697  47k  
C_C6         N02915 N03243  220u  
D_D3         N00272 N00241 D1SS104 
R_R5         N01558 N01472  220  
R_R2         N07086 N06437  220  
R_R10         N02353 N03243  39k  

**** RESUMING yamaha-schematic1-señal.sim.cir ****
.END

**** 10/02/18 17:36:02 ********* PSpice 9.2 (Mar 2000) ******** ID# 0 ********

 ** Profile: "SCHEMATIC1-seal"  [ d:\facu\[8610] diseo de circuitos electrnicos\yamaha\yamaha-schematic1-seal.sim ] 


 ****     Diode MODEL PARAMETERS


******************************************************************************




               D1SS104         
          IS    5.001000E-12 
           N    1.491        
         ISR  338.900000E-12 
          NR    1.994        
         IKF     .1672       
          BV   35            
         IBV  100.000000E-06 
          RS     .1724       
          TT    5.000000E-09 
         CJO    2.994000E-12 
          VJ     .3905       
           M     .256        
         XTI    5.5          


**** 10/02/18 17:36:02 ********* PSpice 9.2 (Mar 2000) ******** ID# 0 ********

 ** Profile: "SCHEMATIC1-seal"  [ d:\facu\[8610] diseo de circuitos electrnicos\yamaha\yamaha-schematic1-seal.sim ] 


 ****     BJT MODEL PARAMETERS


******************************************************************************




               Q2SA893         Q2SD1915        Q2SA1368        Q2SA970         
               PNP             NPN             PNP             PNP             
          IS    9.744000E-15   19.860000E-15   10.000000E-15  465.400000E-15 
          BF  509.1             1.286000E+03  120             407.6          
          NF    1               1               1               1            
         VAF  100             100             100              57            
         IKF     .01538          .01425         3.68             .3998       
         ISE   65.860000E-15   68.480000E-15    5.524000E-12    4.683000E-12 
          NE    1.902           2.4             2               2.051        
          BR    1              43.11            1               1            
          NR    1               1               1               1            
         VAR  100             100             100             100            
         IKR                                     .01            6.032        
         ISC                  463.500000E-15                  465.400000E-15 
          NC                                                    1.048        
          NK     .3523           .3166          1.423           1.192        
          RC                     .9793                          2.343        
         CJE    5.000000E-12    5.000000E-12                    5.000000E-12 
         MJE     .3333           .3333                           .3333       
         CJC    5.793000E-12   26.870000E-12   40.990000E-12   11.590000E-12 
         VJC     .3905           .3905           .35            1.155        
         MJC     .3372           .5236           .3708           .4014       
          TF    1.357000E-09    1.000000E-09  906.700000E-12    1.252000E-09 
         XTF  372.5                                                          
         VTF   10              10              10              10            
         ITF    1.182           1             273.8             1            
          TR   10.000000E-09   10.000000E-09   10.000000E-09   10.000000E-09 
         XTB    1.5             1.5                             1.5          
          CN    2.2             2.42            2.2             2.2          
           D     .52             .87             .52             .52         


               Q2SA1145        Q2SC2705        Q2SC3438        Q2SC1815        
               PNP             NPN             NPN             NPN             
          IS   67.340000E-15   14.910000E-15    6.981000E-12  639.500000E-18 
          BF  152.4           145.1           240.9           149.9          
          NF    1               1               1               1            
         VAF  100             100             100             172.5          
         IKF     .5              .4991          4.999            .8587       
         ISE   67.340000E-15   14.910000E-15    6.981000E-12  750.100000E-18 
          NE    1.396           1.349           1.308           1.47         
          BR    1               3.184            .1001          6.575        
          NR    1               1               1               1            
         VAR  100             100             100             100            
         IKR    6.118            .01954          .01             .4534       
         ISC  314.900000E-15  343.900000E-12    6.981000E-12    4.653000E-15 
          NC    1.082           1.85                            1.185        
          NK    1.913           1.726           1.199            .5413       
          RC    3.162                                            .7972       
         CJE    5.000000E-12    5.000000E-12                    5.000000E-12 
         MJE     .3333           .3333                           .3333       
         CJC    6.536000E-12    4.636000E-12   25.190000E-12    4.858000E-12 
         VJC     .6025           .3905           .35                         
         MJC     .3434           .2807           .3695           .3333       
          TF  833.200000E-12    1.062000E-09    1.457000E-09  314.300000E-12 
         XTF  644              16.270000E-09   13.23                         
         VTF   10              10                .1617         10            
         ITF    5.198          67.89           41.99           13.01         
          TR   10.000000E-09   10.000000E-09   10.000000E-09   10.000000E-09 
         XTB    1.5             1.5                             1.5          
          CN    2.2             2.42            2.42            2.42         
           D     .52             .87             .87             .87         


               Q2SA1015        Q2SA1302        Q2SC3281        
               PNP             PNP             NPN             
          IS    2.040000E-15   21.479000E-12   10.000000E-15 
          BF  183             136.48          155.65         
          NF    1               1               1            
         VAF  100             100             100            
         IKF    1.5            19.98            9.2028       
         ISE    2.140000E-15   21.504000E-12   54.325000E-15 
          NE    1.465           1.3784          1.3056       
          BR   10.97          329.48           10.787        
          NR    1               1               1            
         VAR  100             100             100            
         IKR     .02637        19.98            1.8561       
         ISC    2.619000E-15    4.367000E-09  106.690000E-15 
          NC    1.707           1.4264          1.6728       
          NK    1.319            .72845          .55624      
          RC     .5              .093301         .026745     
         CJE    5.000000E-12  755.310000E-12    2.000000E-12 
         MJE     .3333           .33333                      
         CJC    9.716000E-12    1.141700E-09  534.410000E-12 
         MJC     .3333           .33333          .33333      
          TF  452.400000E-12    1.280200E-09    8.082100E-09 
         XTF                   10               3.1968       
         VTF   10              10                .021461     
         ITF    5               1             169.59         
          TR   10.000000E-09   10.000000E-09  187.910000E-09 
         XTB    1.5                             1.5          
          CN    2.2             2.2             2.42         
           D     .52             .52             .87         


**** 10/02/18 17:36:02 ********* PSpice 9.2 (Mar 2000) ******** ID# 0 ********

 ** Profile: "SCHEMATIC1-seal"  [ d:\facu\[8610] diseo de circuitos electrnicos\yamaha\yamaha-schematic1-seal.sim ] 


 ****     INITIAL TRANSIENT SOLUTION       TEMPERATURE =   27.000 DEG C


******************************************************************************



 NODE   VOLTAGE     NODE   VOLTAGE     NODE   VOLTAGE     NODE   VOLTAGE


(N00241)  -51.1890 (N00272)  -51.7790 (N00733)   51.8990 (N00839)   51.7310     

(N00893)   51.1170 (N01118)   51.7130 (N01287)     .4993 (N01472)  -51.8660     

(N01501)  -51.8660 (N01558)  -51.8980 (N02353)     .0096 (N02382)    0.0000     

(N02413)    0.0000 (N02915)     .0091 (N03011)     .0088 (N03243) 239.0E-06     

(N03702)    1.2538 (N04080)  -51.0820 (N04231)  -51.8980 (N04697)   -1.2057     

(N04763)  -51.7120 (N05126)    -.6328 (N05802)  -52.0000 (N06437)     .7324     

(N06531)   52.0000 (N06963)    -.5146 (N07086)    -.5152 (N07200)    -.5146     

(N07737)     .0127 (N08166)     .7316 (N08456)     .0050 (N08485)     .0050     

(N17268)     .7316 (N005931)   51.5080                   (N074272)     .0127    




    VOLTAGE SOURCE CURRENTS
    NAME         CURRENT

    V_V1        -4.350E-02
    V_V2        -4.242E-02
    V_V4         0.000E+00

    TOTAL POWER DISSIPATION   4.47E+00  WATTS



          JOB CONCLUDED

          TOTAL JOB TIME             .03
